Title: inverter example circuit for control language tutorial
Date: Sat Sep 24 18:28:59  2022
Plotname: Transient Analysis
Flags: real
No. Variables: 6
No. Points: 5038    
Variables:
	0	time	time
	1	v(cc)	voltage
	2	v(in)	voltage
	3	v(out)	voltage
	4	i(vin)	current
	5	i(vcc)	current
Values:
0		0.000000000000000e+00
	2.000000000000000e+00
	0.000000000000000e+00
	1.999999944899226e+00
	0.000000000000000e+00
	-2.613155646730148e-10
1		1.000000000000000e-12
	2.000000000000000e+00
	0.000000000000000e+00
	1.999999945481653e+00
	6.233104310471305e-12
	-2.683593035290865e-10
2		2.000000000000000e-12
	2.000000000000000e+00
	0.000000000000000e+00
	1.999999945931678e+00
	4.816137072483073e-12
	-2.667580531467983e-10
3		4.000000000000001e-12
	2.000000000000000e+00
	0.000000000000000e+00
	1.999999946627124e+00
	2.626478895484397e-12
	-2.642836262334303e-10
4		8.000000000000001e-12
	2.000000000000000e+00
	0.000000000000000e+00
	1.999999947245150e+00
	6.805684488186969e-13
	-2.620846421830247e-10
5		1.600000000000000e-11
	2.000000000000000e+00
	0.000000000000000e+00
	1.999999947478858e+00
	-5.528390245590487e-14
	-2.612530955459214e-10
6		3.200000000000001e-11
	2.000000000000000e+00
	0.000000000000000e+00
	1.999999947454213e+00
	2.231461543322766e-14
	-2.613407823481850e-10
7		6.400000000000001e-11
	2.000000000000000e+00
	0.000000000000000e+00
	1.999999947465904e+00
	-1.449361464178622e-14
	-2.612991923528485e-10
8		1.280000000000000e-10
	2.000000000000000e+00
	0.000000000000000e+00
	1.999999947457580e+00
	1.171035924479868e-14
	-2.613287988784130e-10
9		2.280000000000000e-10
	2.000000000000000e+00
	0.000000000000000e+00
	1.999999947464546e+00
	-1.021968967784836e-14
	-2.613040183535587e-10
10		3.280000000000001e-10
	2.000000000000000e+00
	0.000000000000000e+00
	1.999999947458467e+00
	8.918484440539887e-15
	-2.613256451511337e-10
11		4.280000000000001e-10
	2.000000000000000e+00
	0.000000000000000e+00
	1.999999947463772e+00
	-7.783107925513066e-15
	-2.613067782986089e-10
12		5.280000000000000e-10
	2.000000000000000e+00
	0.000000000000000e+00
	1.999999947459142e+00
	6.792092929752691e-15
	-2.613232425591194e-10
13		6.280000000000000e-10
	2.000000000000000e+00
	0.000000000000000e+00
	1.999999947463182e+00
	-5.927387487086877e-15
	-2.613088721098444e-10
14		7.280000000000000e-10
	2.000000000000000e+00
	0.000000000000000e+00
	1.999999947459657e+00
	5.172782775036966e-15
	-2.613214124258523e-10
15		8.279999999999999e-10
	2.000000000000000e+00
	0.000000000000000e+00
	1.999999947462734e+00
	-4.514021535034773e-15
	-2.613104680554423e-10
16		9.279999999999999e-10
	2.000000000000000e+00
	0.000000000000000e+00
	1.999999947460049e+00
	3.939340173508832e-15
	-2.613200177081776e-10
17		1.028000000000000e-09
	2.000000000000000e+00
	0.000000000000000e+00
	1.999999947462392e+00
	-3.438167719277407e-15
	-2.613116840965990e-10
18		1.128000000000000e-09
	2.000000000000000e+00
	0.000000000000000e+00
	1.999999947460347e+00
	3.000258461810512e-15
	-2.613189543226868e-10
19		1.228000000000000e-09
	2.000000000000000e+00
	0.000000000000000e+00
	1.999999947462131e+00
	-2.618239826335245e-15
	-2.613126121736586e-10
20		1.328000000000000e-09
	2.000000000000000e+00
	0.000000000000000e+00
	1.999999947460573e+00
	2.284793448187328e-15
	-2.613181528804409e-10
21		1.428000000000000e-09
	2.000000000000000e+00
	0.000000000000000e+00
	1.999999947461934e+00
	-1.993739374983594e-15
	-2.613133112672195e-10
22		1.528000000000000e-09
	2.000000000000000e+00
	0.000000000000000e+00
	1.999999947460747e+00
	1.739602385752992e-15
	-2.613175318494365e-10
23		1.628000000000000e-09
	2.000000000000000e+00
	0.000000000000000e+00
	1.999999947461782e+00
	-1.517937251588330e-15
	-2.613138490314970e-10
24		1.728000000000000e-09
	2.000000000000000e+00
	0.000000000000000e+00
	1.999999947460879e+00
	1.324244533473795e-15
	-2.613170617393745e-10
25		1.828000000000001e-09
	2.000000000000000e+00
	0.000000000000000e+00
	1.999999947461667e+00
	-1.155271624891929e-15
	-2.613142601609608e-10
26		1.928000000000000e-09
	2.000000000000000e+00
	0.000000000000000e+00
	1.999999947460980e+00
	1.008036969868398e-15
	-2.613167078557854e-10
27		2.028000000000000e-09
	2.000000000000000e+00
	0.000000000000000e+00
	1.999999947461580e+00
	-8.793421719943684e-16
	-2.613145758806334e-10
28		2.128000000000001e-09
	2.000000000000000e+00
	0.000000000000000e+00
	1.999999947461056e+00
	7.668561965989973e-16
	-2.613164320347527e-10
29		2.228000000000001e-09
	2.000000000000000e+00
	0.000000000000000e+00
	1.999999947461513e+00
	-6.690611606408048e-16
	-2.613148118030262e-10
30		2.328000000000001e-09
	2.000000000000000e+00
	0.000000000000000e+00
	1.999999947461114e+00
	5.836260294489470e-16
	-2.613162273373826e-10
31		2.428000000000001e-09
	2.000000000000000e+00
	0.000000000000000e+00
	1.999999947461462e+00
	-5.092497604164414e-16
	-2.613149922142677e-10
32		2.528000000000001e-09
	2.000000000000000e+00
	0.000000000000000e+00
	1.999999947461158e+00
	4.442518401759354e-16
	-2.613160677428228e-10
33		2.628000000000001e-09
	2.000000000000000e+00
	0.000000000000000e+00
	1.999999947461423e+00
	-3.875480665549436e-16
	-2.613151309921458e-10
34		2.728000000000001e-09
	2.000000000000000e+00
	0.000000000000000e+00
	1.999999947461192e+00
	3.378916070551075e-16
	-2.613159497816264e-10
35		2.828000000000001e-09
	2.000000000000000e+00
	0.000000000000000e+00
	1.999999947461394e+00
	-2.947945706988087e-16
	-2.613152333408308e-10
36		2.928000000000001e-09
	2.000000000000000e+00
	0.000000000000000e+00
	1.999999947461218e+00
	2.573895957480588e-16
	-2.613158561065587e-10
37		3.028000000000001e-09
	2.000000000000000e+00
	0.000000000000000e+00
	1.999999947461372e+00
	-2.244840598131237e-16
	-2.613153166075577e-10
38		3.128000000000001e-09
	2.000000000000000e+00
	0.000000000000000e+00
	1.999999947461238e+00
	1.958069123508821e-16
	-2.613157901870666e-10
39		3.228000000000001e-09
	2.000000000000000e+00
	0.000000000000000e+00
	1.999999947461355e+00
	-1.708702623837155e-16
	-2.613153773228793e-10
40		3.328000000000001e-09
	2.000000000000000e+00
	0.000000000000000e+00
	1.999999947461252e+00
	1.488067481736355e-16
	-2.613157364106389e-10
41		3.428000000000001e-09
	2.000000000000000e+00
	0.000000000000000e+00
	1.999999947461341e+00
	-1.298332101551392e-16
	-2.613154224256897e-10
42		3.528000000000001e-09
	2.000000000000000e+00
	0.000000000000000e+00
	1.999999947461264e+00
	1.130822865902381e-16
	-2.613156947772755e-10
43		3.628000000000002e-09
	2.000000000000000e+00
	0.000000000000000e+00
	1.999999947461331e+00
	-9.877081791342945e-17
	-2.613154553854358e-10
44		3.728000000000001e-09
	2.000000000000000e+00
	0.000000000000000e+00
	1.999999947461272e+00
	8.592302216947623e-17
	-2.613156635522529e-10
45		3.828000000000001e-09
	2.000000000000000e+00
	0.000000000000000e+00
	1.999999947461323e+00
	-7.486416001012408e-17
	-2.613154866104583e-10
46		3.928000000000001e-09
	2.000000000000000e+00
	0.000000000000000e+00
	1.999999947461279e+00
	6.532318089225164e-17
	-2.613156410008477e-10
47		4.028000000000001e-09
	2.000000000000000e+00
	0.000000000000000e+00
	1.999999947461318e+00
	-5.702903427273753e-17
	-2.613155039576931e-10
48		4.128000000000001e-09
	2.000000000000000e+00
	0.000000000000000e+00
	1.999999947461284e+00
	4.965645949983610e-17
	-2.613156253883364e-10
49		4.228000000000002e-09
	2.000000000000000e+00
	0.000000000000000e+00
	1.999999947461314e+00
	-4.320545657354735e-17
	-2.613155195702044e-10
50		4.328000000000002e-09
	2.000000000000000e+00
	0.000000000000000e+00
	1.999999947461288e+00
	3.762181538524700e-17
	-2.613156115105486e-10
51		4.428000000000002e-09
	2.000000000000000e+00
	0.000000000000000e+00
	1.999999947461311e+00
	-3.295974604355933e-17
	-2.613155317132687e-10
52		4.528000000000002e-09
	2.000000000000000e+00
	0.000000000000000e+00
	1.999999947461291e+00
	2.862293735361732e-17
	-2.613155958980373e-10
53		4.628000000000002e-09
	2.000000000000000e+00
	0.000000000000000e+00
	1.999999947461308e+00
	-2.493664996716660e-17
	-2.613155386521626e-10
54		4.728000000000002e-09
	2.000000000000000e+00
	0.000000000000000e+00
	1.999999947461293e+00
	2.162983334108581e-17
	-2.613155924285904e-10
55		4.828000000000002e-09
	2.000000000000000e+00
	0.000000000000000e+00
	1.999999947461306e+00
	-1.864827736675068e-17
	-2.613155473257800e-10
56		4.928000000000002e-09
	2.000000000000000e+00
	0.000000000000000e+00
	1.999999947461295e+00
	1.604619215278547e-17
	-2.613155837549730e-10
57		5.028000000000002e-09
	2.000000000000000e+00
	0.000000000000000e+00
	1.999999947461304e+00
	-1.414883835093583e-17
	-2.613155525299504e-10
58		5.128000000000002e-09
	2.000000000000000e+00
	0.000000000000000e+00
	1.999999947461296e+00
	1.241411487495903e-17
	-2.613155785508026e-10
59		5.228000000000002e-09
	2.000000000000000e+00
	0.000000000000000e+00
	1.999999947461303e+00
	-1.100465205072787e-17
	-2.613155577341209e-10
60		5.328000000000002e-09
	2.000000000000000e+00
	0.000000000000000e+00
	1.999999947461296e+00
	9.486769009248164e-18
	-2.613155820202495e-10
61		5.428000000000002e-09
	2.000000000000000e+00
	0.000000000000000e+00
	1.999999947461303e+00
	-8.239936510889834e-18
	-2.613155594688443e-10
62		5.528000000000002e-09
	2.000000000000000e+00
	0.000000000000000e+00
	1.999999947461297e+00
	6.993104012531504e-18
	-2.613155785508026e-10
63		5.628000000000002e-09
	2.000000000000000e+00
	0.000000000000000e+00
	1.999999947461302e+00
	-5.800481622797449e-18
	-2.613155612035678e-10
64		5.728000000000003e-09
	2.000000000000000e+00
	0.000000000000000e+00
	1.999999947461298e+00
	4.824699667560495e-18
	-2.613155733466321e-10
65		5.828000000000003e-09
	2.000000000000000e+00
	0.000000000000000e+00
	1.999999947461301e+00
	-4.228388472693467e-18
	-2.613155646730148e-10
66		5.928000000000003e-09
	2.000000000000000e+00
	0.000000000000000e+00
	1.999999947461299e+00
	3.523657060577889e-18
	-2.613155698771852e-10
67		6.028000000000003e-09
	2.000000000000000e+00
	0.000000000000000e+00
	1.999999947461301e+00
	-3.306816626080789e-18
	-2.613155664077382e-10
68		6.128000000000003e-09
	2.000000000000000e+00
	0.000000000000000e+00
	1.999999947461299e+00
	2.818925648462312e-18
	-2.613155698771852e-10
69		6.228000000000003e-09
	2.000000000000000e+00
	0.000000000000000e+00
	1.999999947461301e+00
	-2.222614453595284e-18
	-2.613155664077382e-10
70		6.328000000000003e-09
	2.000000000000000e+00
	0.000000000000000e+00
	1.999999947461299e+00
	1.843143693225358e-18
	-2.613155698771852e-10
71		6.428000000000003e-09
	2.000000000000000e+00
	0.000000000000000e+00
	1.999999947461300e+00
	-1.680513367352532e-18
	-2.613155698771852e-10
72		6.528000000000003e-09
	2.000000000000000e+00
	0.000000000000000e+00
	1.999999947461299e+00
	1.517883041479706e-18
	-2.613155698771852e-10
73		6.628000000000003e-09
	2.000000000000000e+00
	0.000000000000000e+00
	1.999999947461301e+00
	-1.029992063861229e-18
	-2.613155664077382e-10
74		6.728000000000003e-09
	2.000000000000000e+00
	0.000000000000000e+00
	1.999999947461299e+00
	1.138412281109780e-18
	-2.613155681424617e-10
75		6.828000000000003e-09
	2.000000000000000e+00
	0.000000000000000e+00
	1.999999947461300e+00
	-1.138412281109780e-18
	-2.613155681424617e-10
76		6.928000000000003e-09
	2.000000000000000e+00
	0.000000000000000e+00
	1.999999947461299e+00
	1.138412281109780e-18
	-2.613155681424617e-10
77		7.028000000000003e-09
	2.000000000000000e+00
	0.000000000000000e+00
	1.999999947461300e+00
	-1.138412281109780e-18
	-2.613155698771852e-10
78		7.128000000000004e-09
	2.000000000000000e+00
	0.000000000000000e+00
	1.999999947461299e+00
	1.138412281109780e-18
	-2.613155681424617e-10
79		7.228000000000004e-09
	2.000000000000000e+00
	0.000000000000000e+00
	1.999999947461300e+00
	-1.138412281109780e-18
	-2.613155698771852e-10
80		7.328000000000004e-09
	2.000000000000000e+00
	0.000000000000000e+00
	1.999999947461299e+00
	1.029992063861229e-18
	-2.613155681424617e-10
81		7.428000000000004e-09
	2.000000000000000e+00
	0.000000000000000e+00
	1.999999947461300e+00
	-1.029992063861229e-18
	-2.613155698771852e-10
82		7.528000000000003e-09
	2.000000000000000e+00
	0.000000000000000e+00
	1.999999947461299e+00
	1.029992063861229e-18
	-2.613155681424617e-10
83		7.628000000000002e-09
	2.000000000000000e+00
	0.000000000000000e+00
	1.999999947461300e+00
	-1.029992063861229e-18
	-2.613155716119087e-10
84		7.728000000000001e-09
	2.000000000000000e+00
	0.000000000000000e+00
	1.999999947461300e+00
	9.215718466126788e-19
	-2.613155681424617e-10
85		7.828000000000001e-09
	2.000000000000000e+00
	0.000000000000000e+00
	1.999999947461300e+00
	-1.029992063861229e-18
	-2.613155698771852e-10
86		7.928000000000000e-09
	2.000000000000000e+00
	0.000000000000000e+00
	1.999999947461300e+00
	1.029992063861229e-18
	-2.613155681424617e-10
87		8.027999999999999e-09
	2.000000000000000e+00
	0.000000000000000e+00
	1.999999947461300e+00
	-1.029992063861229e-18
	-2.613155698771852e-10
88		8.127999999999998e-09
	2.000000000000000e+00
	0.000000000000000e+00
	1.999999947461300e+00
	1.029992063861229e-18
	-2.613155681424617e-10
89		8.227999999999998e-09
	2.000000000000000e+00
	0.000000000000000e+00
	1.999999947461300e+00
	-1.029992063861229e-18
	-2.613155698771852e-10
90		8.327999999999997e-09
	2.000000000000000e+00
	0.000000000000000e+00
	1.999999947461300e+00
	1.029992063861229e-18
	-2.613155681424617e-10
91		8.427999999999996e-09
	2.000000000000000e+00
	0.000000000000000e+00
	1.999999947461300e+00
	-1.029992063861229e-18
	-2.613155698771852e-10
92		8.527999999999995e-09
	2.000000000000000e+00
	0.000000000000000e+00
	1.999999947461300e+00
	1.029992063861229e-18
	-2.613155681424617e-10
93		8.627999999999995e-09
	2.000000000000000e+00
	0.000000000000000e+00
	1.999999947461300e+00
	-1.029992063861229e-18
	-2.613155698771852e-10
94		8.727999999999994e-09
	2.000000000000000e+00
	0.000000000000000e+00
	1.999999947461300e+00
	1.029992063861229e-18
	-2.613155681424617e-10
95		8.827999999999993e-09
	2.000000000000000e+00
	0.000000000000000e+00
	1.999999947461300e+00
	-1.029992063861229e-18
	-2.613155698771852e-10
96		8.927999999999992e-09
	2.000000000000000e+00
	0.000000000000000e+00
	1.999999947461300e+00
	1.029992063861229e-18
	-2.613155681424617e-10
97		9.027999999999992e-09
	2.000000000000000e+00
	0.000000000000000e+00
	1.999999947461300e+00
	-1.029992063861229e-18
	-2.613155698771852e-10
98		9.127999999999991e-09
	2.000000000000000e+00
	0.000000000000000e+00
	1.999999947461300e+00
	1.029992063861229e-18
	-2.613155681424617e-10
99		9.227999999999990e-09
	2.000000000000000e+00
	0.000000000000000e+00
	1.999999947461300e+00
	-1.029992063861229e-18
	-2.613155698771852e-10
100		9.327999999999989e-09
	2.000000000000000e+00
	0.000000000000000e+00
	1.999999947461300e+00
	1.029992063861229e-18
	-2.613155681424617e-10
101		9.427999999999989e-09
	2.000000000000000e+00
	0.000000000000000e+00
	1.999999947461300e+00
	-1.029992063861229e-18
	-2.613155698771852e-10
102		9.527999999999988e-09
	2.000000000000000e+00
	0.000000000000000e+00
	1.999999947461300e+00
	1.029992063861229e-18
	-2.613155681424617e-10
103		9.627999999999987e-09
	2.000000000000000e+00
	0.000000000000000e+00
	1.999999947461300e+00
	-1.029992063861229e-18
	-2.613155698771852e-10
104		9.727999999999986e-09
	2.000000000000000e+00
	0.000000000000000e+00
	1.999999947461300e+00
	1.029992063861229e-18
	-2.613155681424617e-10
105		9.827999999999986e-09
	2.000000000000000e+00
	0.000000000000000e+00
	1.999999947461300e+00
	-1.029992063861229e-18
	-2.613155698771852e-10
106		9.927999999999985e-09
	2.000000000000000e+00
	0.000000000000000e+00
	1.999999947461300e+00
	1.029992063861229e-18
	-2.613155681424617e-10
107		1.002799999999998e-08
	2.000000000000000e+00
	0.000000000000000e+00
	1.999999947461300e+00
	-1.029992063861229e-18
	-2.613155698771852e-10
108		1.012799999999998e-08
	2.000000000000000e+00
	0.000000000000000e+00
	1.999999947461300e+00
	1.029992063861229e-18
	-2.613155681424617e-10
109		1.022799999999998e-08
	2.000000000000000e+00
	0.000000000000000e+00
	1.999999947461300e+00
	-1.029992063861229e-18
	-2.613155698771852e-10
110		1.032799999999998e-08
	2.000000000000000e+00
	0.000000000000000e+00
	1.999999947461300e+00
	1.029992063861229e-18
	-2.613155681424617e-10
111		1.042799999999998e-08
	2.000000000000000e+00
	0.000000000000000e+00
	1.999999947461300e+00
	-1.029992063861229e-18
	-2.613155698771852e-10
112		1.052799999999998e-08
	2.000000000000000e+00
	0.000000000000000e+00
	1.999999947461300e+00
	1.029992063861229e-18
	-2.613155681424617e-10
113		1.062799999999998e-08
	2.000000000000000e+00
	0.000000000000000e+00
	1.999999947461300e+00
	-1.029992063861229e-18
	-2.613155698771852e-10
114		1.072799999999998e-08
	2.000000000000000e+00
	0.000000000000000e+00
	1.999999947461300e+00
	1.029992063861229e-18
	-2.613155681424617e-10
115		1.082799999999998e-08
	2.000000000000000e+00
	0.000000000000000e+00
	1.999999947461300e+00
	-1.029992063861229e-18
	-2.613155698771852e-10
116		1.092799999999998e-08
	2.000000000000000e+00
	0.000000000000000e+00
	1.999999947461300e+00
	1.029992063861229e-18
	-2.613155681424617e-10
117		1.102799999999998e-08
	2.000000000000000e+00
	0.000000000000000e+00
	1.999999947461300e+00
	-1.029992063861229e-18
	-2.613155698771852e-10
118		1.112799999999998e-08
	2.000000000000000e+00
	0.000000000000000e+00
	1.999999947461300e+00
	1.029992063861229e-18
	-2.613155681424617e-10
119		1.122799999999997e-08
	2.000000000000000e+00
	0.000000000000000e+00
	1.999999947461300e+00
	-1.029992063861229e-18
	-2.613155698771852e-10
120		1.132799999999997e-08
	2.000000000000000e+00
	0.000000000000000e+00
	1.999999947461300e+00
	1.029992063861229e-18
	-2.613155681424617e-10
121		1.142799999999997e-08
	2.000000000000000e+00
	0.000000000000000e+00
	1.999999947461300e+00
	-1.029992063861229e-18
	-2.613155698771852e-10
122		1.152799999999997e-08
	2.000000000000000e+00
	0.000000000000000e+00
	1.999999947461300e+00
	1.029992063861229e-18
	-2.613155681424617e-10
123		1.162799999999997e-08
	2.000000000000000e+00
	0.000000000000000e+00
	1.999999947461300e+00
	-1.029992063861229e-18
	-2.613155698771852e-10
124		1.172799999999997e-08
	2.000000000000000e+00
	0.000000000000000e+00
	1.999999947461300e+00
	1.029992063861229e-18
	-2.613155681424617e-10
125		1.182799999999997e-08
	2.000000000000000e+00
	0.000000000000000e+00
	1.999999947461300e+00
	-1.029992063861229e-18
	-2.613155698771852e-10
126		1.192799999999997e-08
	2.000000000000000e+00
	0.000000000000000e+00
	1.999999947461300e+00
	1.029992063861229e-18
	-2.613155681424617e-10
127		1.202799999999997e-08
	2.000000000000000e+00
	0.000000000000000e+00
	1.999999947461300e+00
	-1.029992063861229e-18
	-2.613155698771852e-10
128		1.212799999999997e-08
	2.000000000000000e+00
	0.000000000000000e+00
	1.999999947461300e+00
	1.029992063861229e-18
	-2.613155681424617e-10
129		1.222799999999997e-08
	2.000000000000000e+00
	0.000000000000000e+00
	1.999999947461300e+00
	-1.029992063861229e-18
	-2.613155698771852e-10
130		1.232799999999997e-08
	2.000000000000000e+00
	0.000000000000000e+00
	1.999999947461300e+00
	1.029992063861229e-18
	-2.613155681424617e-10
131		1.242799999999997e-08
	2.000000000000000e+00
	0.000000000000000e+00
	1.999999947461300e+00
	-1.029992063861229e-18
	-2.613155698771852e-10
132		1.252799999999997e-08
	2.000000000000000e+00
	0.000000000000000e+00
	1.999999947461300e+00
	1.029992063861229e-18
	-2.613155681424617e-10
133		1.262799999999996e-08
	2.000000000000000e+00
	0.000000000000000e+00
	1.999999947461300e+00
	-1.029992063861229e-18
	-2.613155698771852e-10
134		1.272799999999996e-08
	2.000000000000000e+00
	0.000000000000000e+00
	1.999999947461300e+00
	1.029992063861229e-18
	-2.613155681424617e-10
135		1.282799999999996e-08
	2.000000000000000e+00
	0.000000000000000e+00
	1.999999947461300e+00
	-1.029992063861229e-18
	-2.613155698771852e-10
136		1.292799999999996e-08
	2.000000000000000e+00
	0.000000000000000e+00
	1.999999947461300e+00
	1.029992063861229e-18
	-2.613155681424617e-10
137		1.302799999999996e-08
	2.000000000000000e+00
	0.000000000000000e+00
	1.999999947461300e+00
	-1.029992063861229e-18
	-2.613155698771852e-10
